Time [s],Value,Parity Error,Framing Error
0.807107300,(255),,
0.809939300,NUL,,Error
0.811811300,NUL,,Error
0.812809700,H,,
0.813803400,(239),,
0.814793800,US ,,Error
0.815809700,NUL,,Error
0.834329700,BS ,,Error
0.835331300,ENQ,,Error
0.837809600,NUL,,Error
0.838811300,NUL,,Error
0.839811300,SOH,,Error
0.840809700,NUL,,Error
0.841809700,NUL,,Error
0.842811300,NUL,,
0.843801700,(248),,
0.845179300,(255),,
0.846308900,BEL,,Error
0.847463500,DLE,,Error
0.848784100,NUL,,Error
0.849811300,NUL,,Error
0.850811300,NUL,,Error
0.851809700,NUL,,Error
0.854763300,EOT,,Error
0.855884900,NUL,,Error
0.859731300,STX,,
0.860721700,FF ,,Error
0.861811300,<,,Error
0.862809700,NUL,,Error
0.873443200,j,,
0.874435300,(253),,
0.875433800,(255),,
0.877309000,?,,Error
0.878353700,NUL,,Error
0.879443300,EOT,,Error
0.880441700,(239),,
0.881432100,(160),,Error
0.882424100,NUL,,Error
0.883811300,BS ,,Error
0.884803300,NUL,,Error
0.886109400,CAN,,Error
0.887206500,},,Error
0.888809700,NUL,,Error
0.889803300,(255),,
0.890859300,(223),,
0.891851300,(255),,
0.892843300,DEL,,Error
0.893845000,(135),,Error
0.894848100,(,,
0.895841700,(212),,
0.896833800,?,,
0.897827400,BEL,,Error
0.899688200,(SP),,
0.900681700,(175),,Error
0.901673800,(253),,
0.902673800,[,,Error
0.903678600,(255),,
0.904718600,#,,Error
0.905763300,(252),,
0.907308900,(255),,
0.908308900,NUL,,Error
0.909723300,0,,
0.910713700,(255),,
0.911721700,DEL,,
0.912715300,HT ,,Error
0.913707300,NUL,,Error
0.914712200,NUL,,Error
0.915705700,(255),,
0.917308900,(255),,
0.918308900,BEL,,Error
0.919643300,BS ,,Error
0.920782600,NUL,,Error
0.921809700,(232),,
0.922801700,(255),,
0.923899300,(255),,
0.924891300,(255),,
0.925953800,(255),,
0.927939300,(255),,Error
0.929811200,(252),,
0.930859300,(255),,
0.931853000,(243),,
0.932846500,N,,
0.933840100,(173),,Error
0.934832100,(252),,
0.935825700,(255),,
0.936817800,(255),,
0.938220800,(255),,Error
0.939224200,NUL,,Error
0.940255800,(192),,Error
0.941248200,(136),,Error
0.942240100,NUL,,Error
0.943232200,NUL,,Error
0.944811300,NUL,,Error
0.945809700,NUL,,Error
0.946809600,NUL,,Error
0.947811300,NUL,,Error
0.948809700,NUL,,Error
0.952809500,NUL,,Error
0.953809700,NUL,,Error
0.954809700,NUL,,Error
0.955811300,NUL,,
0.956801700,NUL,,Error
0.957808100,NUL,,Error
0.958811300,NUL,,Error
0.963809700,NUL,,Error
0.964811300,NUL,,Error
0.965809700,NUL,,Error
0.966811300,@,,Error
0.967803300,(253),,
0.968859300,DEL,,Error
0.970809700,(168),,
0.971801700,(255),,
0.972801700,(255),,
0.973798600,SI ,,
0.974789000,SOH,,Error
0.975785700,h,,
0.976776100,NUL,,Error
0.977811300,(252),,
0.978835300,(255),,Error
0.979988900,NUL,,Error
0.981115300,(SP),,Error
0.982107300,SOH,,Error
0.983998600,(128),,
0.985308900,(143),,Error
0.986302600,(247),,
0.987309000,(255),,
0.990019300,NUL,,Error
0.991277000,BEL,,Error
0.992344100,0,,Error
0.993363300,NUL,,Error
0.994392200,!,,Error
0.996542600,SI ,,Error
0.998153800,(252),,
0.999259300,(255),,
1.000308900,o,,
1.001299300,BEL,,Error
1.004691300,(255),,
1.007043900,(255),,
1.011308900,(255),,
1.018333900,(255),,
1.020568100,(255),,
1.038270500,(255),,
1.041214500,(255),,
1.047263800,(255),,
1.052308900,(255),,
1.057338500,(255),,
1.058441700,(255),,
1.060251300,(255),,
1.061622600,(255),,
1.064308900,(255),,
1.065308900,(255),,
1.066308900,(191),,Error
1.067307300,(161),,
1.068308900,(255),,
1.069308900,(255),,
1.070308900,(255),,
1.072019300,(255),,
1.074139300,(255),,
1.075158600,(191),,Error
1.076157000,(252),,
1.077566500,(255),,
1.078889700,(255),,
1.080016100,(255),,
1.082062600,(255),,
1.087641200,(255),,
1.092309000,(255),,
1.097715900,(255),,
1.098827400,(255),,
1.099973000,(255),,
1.112579300,(247),,
1.114309000,(255),,
1.117786500,(255),,
1.119641700,(255),,
1.123308900,(255),,
1.127861200,(255),,
1.133099300,(255),,
1.137198600,(255),,
1.138254500,(255),,
1.139595300,(255),,
1.140713700,(255),,
1.143309000,(255),,
1.148010500,(255),,
1.160053700,(255),,
1.164059300,(255),,
1.168238500,(255),,
1.174308900,(253),,
1.178233700,(255),,
1.179819300,(255),,
1.198383800,(255),,
1.199793800,(255),,
1.201380900,(255),,
1.208458500,(255),,
1.218388600,(255),,
1.219755300,(255),,
1.225308900,(255),,
1.228607800,(255),,
1.235308900,(255),,
1.238332200,(255),,
1.239684900,(255),,
1.240825700,(255),,
1.248835900,(255),,
1.256309000,(255),,
1.258308900,(255),,
1.259660900,(255),,
1.260777700,(255),,
1.278276900,(255),,
1.279633800,(255),,
1.280769700,(255),,
1.287308900,(255),,
1.289055800,(255),,
1.297931300,(255),,
1.299130500,(255),,
1.300263700,(255),,
1.308139300,(255),,
1.309205200,(255),,
1.318451300,(255),,
1.319574500,(255),,
1.320693000,(255),,
1.329308900,(255),,
1.339308900,(223),,
1.340433700,(255),,
1.358355300,(255),,
1.359705700,(255),,
1.360843300,(255),,
1.367417800,NUL,,Error
1.374809700,NUL,,Error
1.375809700,NUL,,Error
1.376811300,BS ,,Error
1.377809700,NUL,,Error
1.378813000,(128),,Error
1.379806500,CAN,,Error
1.380801700,(143),,Error
1.382013100,:,,Error
1.383158600,9,,
1.384200000,Q,,
1.385241300,a,,
1.386282600,Q,,
1.387324000,(177),,Error
1.388573600,0,,
1.389614900,1,,
1.390656300,,,,
1.391697600,0,,
1.392739000,1,,
1.393780300,,,,
1.394821600,0,,
1.395863000,2,,
1.396904300,,,,
1.397945700,u,,
1.398987000,-,,
1.400028400,b,,
1.401069700,l,,
1.402111000,o,,
1.403152400,x,,
1.404193700,(SP),,
1.405235100,A,,
1.406276400,G,,
1.407317700,(SP),,
1.408359100,-,,
1.409400400,(SP),,
1.410441800,w,,
1.411483100,w,,
1.412524500,w,,
1.413565800,.,,
1.414607200,u,,
1.415648500,-,,
1.416689800,b,,
1.417731200,l,,
1.418772500,o,,
1.419813900,x,,
1.420855200,.,,
1.421896500,c,,
1.422937900,o,,
1.423979200,m,,
1.425020600,*,,
1.426061900,4,,
1.427103200,E,,
1.428144600,CR ,,
1.429185900,LF ,,
1.430227300,$,,
1.431268600,G,,
1.432310000,N,,
1.433351300,T,,
1.434392700,X,,
1.435434000,T,,
1.436475300,,,,
1.437516700,0,,
1.438558000,1,,
1.439599400,,,,
1.440640700,0,,
1.441682000,1,,
1.442723400,,,,
1.443764700,0,,
1.444806100,2,,
1.445847400,,,,
1.446888800,H,,
1.447930100,W,,
1.448971400,(SP),,
1.450012800,U,,
1.451054100,B,,
1.452095500,X,,
1.453136800,-,,
1.454178100,M,,
1.455219500,8,,
1.456260800,0,,
1.457302200,3,,
1.458343500,0,,
1.459384900,(SP),,
1.460426200,0,,
1.461467600,0,,
1.462508900,0,,
1.463550200,8,,
1.464591600,0,,
1.465632900,0,,
1.466674300,0,,
1.467715600,0,,
1.468756900,*,,
1.469798300,6,,
1.470839600,0,,
1.471881000,CR ,,
1.472922300,LF ,,
1.473963700,$,,
1.475005000,G,,
1.476046300,N,,
1.477087700,T,,
1.478129000,X,,
1.479170400,T,,
1.480211700,,,,
1.481253100,0,,
1.482294400,1,,
1.483335700,,,,
1.484377100,0,,
1.485418400,1,,
1.486459800,,,,
1.487501100,0,,
1.488542400,2,,
1.489583800,,,,
1.490625100,R,,
1.491666500,O,,
1.492707800,M,,
1.493749200,(SP),,
1.494790500,C,,
1.495831800,O,,
1.496873200,R,,
1.497914500,E,,
1.498955900,(SP),,
1.499997200,3,,
1.501038500,.,,
1.502079900,0,,
1.503121200,1,,
1.504162600,(SP),,
1.505203900,(,,
1.506245300,1,,
1.507286600,0,,
1.508328000,7,,
1.509369300,8,,
1.510410600,8,,
1.511452000,8,,
1.512493300,),,
1.513534700,*,,
1.514576000,2,,
1.515617300,B,,
1.516658700,CR ,,
1.517700000,LF ,,
1.518741400,$,,
1.519782700,G,,
1.520824100,N,,
1.521865400,T,,
1.522906700,X,,
1.523948100,T,,
1.524989400,,,,
1.526030800,0,,
1.527072100,1,,
1.528113500,,,,
1.529154800,0,,
1.530196100,1,,
1.531237500,,,,
1.532278800,0,,
1.533320200,2,,
1.534361500,,,,
1.535402800,F,,
1.536444200,W,,
1.537485500,V,,
1.538526900,E,,
1.539568200,R,,
1.540609600,=,,
1.541650900,S,,
1.542692200,P,,
1.543733600,G,,
1.544774900,(SP),,
1.545816300,3,,
1.546857600,.,,
1.547898900,0,,
1.548940300,1,,
1.549981600,*,,
1.551023000,4,,
1.552064300,6,,
1.553105700,CR ,,
1.554147000,LF ,,
1.555188400,$,,
1.556229700,G,,
1.557271000,N,,
1.558312400,T,,
1.559353700,X,,
1.560395100,T,,
1.561436400,,,,
1.562477700,0,,
1.563519100,1,,
1.564560400,,,,
1.565601800,0,,
1.566643100,1,,
1.567684500,,,,
1.568725800,0,,
1.569767100,2,,
1.570808500,,,,
1.571849800,P,,
1.572891200,R,,
1.573932500,O,,
1.574973900,T,,
1.576015200,V,,
1.577056500,E,,
1.578097900,R,,
1.579139200,=,,
1.580180600,1,,
1.581221900,8,,
1.582263200,.,,
1.583304600,0,,
1.584345900,0,,
1.585387300,*,,
1.586428600,1,,
1.587470000,1,,
1.588511300,CR ,,
1.589552600,LF ,,
1.590594000,$,,
1.591635300,G,,
1.592676700,N,,
1.593718000,T,,
1.594759300,X,,
1.595800700,T,,
1.596842000,,,,
1.597883400,0,,
1.598924700,1,,
1.599966100,,,,
1.601007400,0,,
1.602048800,1,,
1.603090100,,,,
1.604131400,0,,
1.605172800,2,,
1.606214100,,,,
1.607255500,G,,
1.608296800,P,,
1.609338100,S,,
1.610379500,;,,
1.611420800,G,,
1.612462200,L,,
1.613503500,O,,
1.614544900,;,,
1.615586200,G,,
1.616627500,A,,
1.617668900,L,,
1.618710200,;,,
1.619751600,B,,
1.620792900,D,,
1.621834300,S,,
1.622875600,*,,
1.623916900,7,,
1.624958300,7,,
1.625999600,CR ,,
1.627041000,LF ,,
1.628082300,$,,
1.629123600,G,,
1.630165000,N,,
1.631206300,T,,
1.632247700,X,,
1.633289000,T,,
1.634330400,,,,
1.635371700,0,,
1.636413000,1,,
1.637454400,,,,
1.638495700,0,,
1.639537100,1,,
1.640578400,,,,
1.641619700,0,,
1.642661100,2,,
1.643702400,,,,
1.644743800,S,,
1.645785100,B,,
1.646826500,A,,
1.647867800,S,,
1.648909200,;,,
1.649950500,I,,
1.650991800,M,,
1.652033200,E,,
1.653074500,S,,
1.654115900,;,,
1.655157200,Q,,
1.656198500,Z,,
1.657239900,S,,
1.658281200,S,,
1.659322600,*,,
1.660363900,4,,
1.661405300,9,,
1.662446600,CR ,,
1.663488000,LF ,,
1.664529300,$,,
1.665570600,G,,
1.666612000,N,,
1.667653300,T,,
1.668694700,X,,
1.669736000,T,,
1.670777300,,,,
1.671818700,0,,
1.672860000,1,,
1.673901400,,,,
1.674942700,0,,
1.675984000,1,,
1.677025400,,,,
1.678066700,0,,
1.679108100,2,,
1.680149400,,,,
1.681190800,G,,
1.682232100,N,,
1.683273400,S,,
1.684314800,S,,
1.685356100,(SP),,
1.686397500,O,,
1.687438800,T,,
1.688480100,P,,
1.689521500,=,,
1.690562800,G,,
1.691604200,P,,
1.692645500,S,,
1.693686900,;,,
1.694728200,G,,
1.695769600,L,,
1.696810900,O,,
1.697852200,*,,
1.698893600,3,,
1.699934900,7,,
1.700976300,CR ,,
1.702017600,LF ,,
1.703058900,$,,
1.704100300,G,,
1.705141600,N,,
1.706183000,T,,
1.707224300,X,,
1.708265700,T,,
1.709307000,,,,
1.710348300,0,,
1.711389700,1,,
1.712431000,,,,
1.713472400,0,,
1.714513700,1,,
1.715555100,,,,
1.716596400,0,,
1.717637700,2,,
1.718679100,,,,
1.719720400,L,,
1.720761800,L,,
1.721803100,C,,
1.722844400,=,,
1.723885800,F,,
1.724927100,F,,
1.725968500,F,,
1.727009800,F,,
1.728051200,F,,
1.729092500,F,,
1.730133800,F,,
1.731175200,F,,
1.732216500,-,,
1.733257900,F,,
1.734299200,F,,
1.735340500,F,,
1.736381900,F,,
1.737423200,F,,
1.738464600,F,,
1.739505900,F,,
1.740547300,F,,
1.741588600,-,,
1.742630000,F,,
1.743671300,F,,
1.744712600,F,,
1.745754000,F,,
1.746795300,F,,
1.747836700,F,,
1.748878000,F,,
1.749919300,F,,
1.750960700,-,,
1.752002000,F,,
1.753043400,F,,
1.754084700,F,,
1.755126100,F,,
1.756167400,F,,
1.757208800,F,,
1.758250100,F,,
1.759291400,F,,
1.760332800,-,,
1.761374100,F,,
1.762415500,F,,
1.763456800,F,,
1.764498100,F,,
1.765539500,F,,
1.766580800,F,,
1.767622200,F,,
1.768663500,D,,
1.769704800,*,,
1.770746200,2,,
1.771787500,F,,
1.772828900,CR ,,
1.773870200,LF ,,
1.774911600,$,,
1.775952900,G,,
1.776994200,N,,
1.778035600,T,,
1.779076900,X,,
1.780118300,T,,
1.781159600,,,,
1.782200900,0,,
1.783242300,1,,
1.784283600,,,,
1.785325000,0,,
1.786366300,1,,
1.787407700,,,,
1.788449000,0,,
1.789490400,2,,
1.790531700,,,,
1.791573000,A,,
1.792614400,N,,
1.793655700,T,,
1.794697100,S,,
1.795738400,U,,
1.796779700,P,,
1.797821100,E,,
1.798862400,R,,
1.799903800,V,,
1.800945100,=,,
1.801986500,A,,
1.803027800,C,,
1.804069200,(SP),,
1.805110500,S,,
1.806151800,D,,
1.807193200,(SP),,
1.808234500,P,,
1.809275900,D,,
1.810317200,o,,
1.811358500,S,,
1.812399900,(SP),,
1.813441200,S,,
1.814482600,R,,
1.815523900,*,,
1.816565200,3,,
1.817606600,E,,
1.818647900,CR ,,
1.819689300,LF ,,
1.820730600,$,,
1.821772000,G,,
1.822813300,N,,
1.823854600,T,,
1.824896000,X,,
1.825937300,T,,
1.826978700,,,,
1.828020000,0,,
1.829061300,1,,
1.830102700,,,,
1.831144000,0,,
1.832185400,1,,
1.833226700,,,,
1.834268100,0,,
1.835309400,2,,
1.836350800,,,,
1.837392100,A,,
1.838433400,N,,
1.839474800,T,,
1.840516100,S,,
1.841557500,T,,
1.842598800,A,,
1.843640100,T,,
1.844681500,U,,
1.845722800,S,,
1.846764200,=,,
1.847805500,D,,
1.848846900,O,,
1.849888200,N,,
1.850929600,T,,
1.851970900,K,,
1.853012200,N,,
1.854053600,O,,
1.855094900,W,,
1.856136300,*,,
1.857177600,2,,
1.858218900,D,,
1.859260300,CR ,,
1.860301600,LF ,,
1.861343000,$,,
1.862384300,G,,
1.863425600,N,,
1.864467000,T,,
1.865508300,X,,
1.866549700,T,,
1.867591000,,,,
1.868632400,0,,
1.869673700,1,,
1.870715000,,,,
1.871756400,0,,
1.872797700,1,,
1.873839100,,,,
1.874880400,0,,
1.875921700,2,,
1.876963100,,,,
1.878004400,P,,
1.879045800,F,,
1.880087100,=,,
1.881128500,3,,
1.882169800,F,,
1.883211200,F,,
1.884252500,*,,
1.885293800,4,,
1.886335200,B,,
1.887376500,CR ,,
1.888417900,LF ,,
1.889459200,$,,
1.890500500,G,,
1.891541900,N,,
1.892583200,R,,
1.893624600,M,,
1.894665900,C,,
1.895707300,,,,
1.896748600,,,,
1.897790000,V,,
1.898831300,,,,
1.899872600,,,,
1.900914000,,,,
1.901955300,,,,
1.902996700,,,,
1.904038000,,,,
1.905079300,,,,
1.906120700,,,,
1.907162000,,,,
1.908203400,,,,
1.909244700,N,,
1.910286000,*,,
1.911327400,4,,
1.912368700,D,,
1.913410100,CR ,,
1.914451400,LF ,,
1.915492800,$,,
1.916534100,G,,
1.917575400,N,,
1.918616800,V,,
1.919658100,T,,
1.920699500,G,,
1.921740800,,,,
1.922782100,,,,
1.923823500,,,,
1.924864800,,,,
1.925906200,,,,
1.926947500,,,,
1.927988900,,,,
1.929030200,,,,
1.930071600,,,,
1.931112900,N,,
1.932154200,*,,
1.933195600,2,,
1.934236900,E,,
1.935278300,CR ,,
1.936319600,LF ,,
1.937360900,$,,
1.938402300,G,,
1.939443600,N,,
1.940485000,G,,
1.941526300,G,,
1.942567700,A,,
1.943609000,,,,
1.944650400,,,,
1.945691700,,,,
1.946733000,,,,
1.947774400,,,,
1.948815700,,,,
1.949857100,0,,
1.950898400,,,,
1.951939700,0,,
1.952981100,0,,
1.954022400,,,,
1.955063800,9,,
1.956105100,9,,
1.957146400,.,,
1.958187800,9,,
1.959229100,9,,
1.960270500,,,,
1.961311800,,,,
1.962353200,,,,
1.963394500,,,,
1.964435800,,,,
1.965477200,,,,
1.966518500,*,,
1.967559900,5,,
1.968601200,6,,
1.969642500,CR ,,
1.970683900,LF ,,
1.971725200,$,,
1.972766600,G,,
1.973807900,N,,
1.974849300,G,,
1.975890600,S,,
1.976932000,A,,
1.977973300,,,,
1.979014600,A,,
1.980056000,,,,
1.981097300,1,,
1.982138700,,,,
1.983180000,,,,
1.984221300,,,,
1.985262700,,,,
1.986304000,,,,
1.987345400,,,,
1.988386700,,,,
1.989428100,,,,
1.990469400,,,,
1.991510800,,,,
1.992552100,,,,
1.993593400,,,,
1.994634800,,,,
1.995676100,9,,
1.996717500,9,,
1.997758800,.,,
1.998800100,9,,
1.999841500,9,,
2.000882800,,,,
2.001924200,9,,
2.002965500,9,,
2.004006900,.,,
2.005048200,9,,
2.006089500,9,,
2.007130900,,,,
2.008172200,9,,
2.009213600,9,,
2.010254900,.,,
2.011296200,9,,
2.012337600,9,,
2.013378900,*,,
2.014420300,2,,
2.015461600,E,,
2.016502900,CR ,,
2.017544300,LF ,,
2.018585600,$,,
2.019627000,G,,
2.020668300,N,,
2.021709700,G,,
2.022751000,S,,
2.023792400,A,,
2.024833700,,,,
2.025875000,A,,
2.026916400,,,,
2.027957700,1,,
2.028999100,,,,
2.030040400,,,,
2.031081700,,,,
2.032123100,,,,
2.033164400,,,,
2.034205800,,,,
2.035247100,,,,
2.036288500,,,,
2.037329800,,,,
2.038371200,,,,
2.039412500,,,,
2.040453800,,,,
2.041495200,,,,
2.042536500,9,,
2.043577900,9,,
2.044619200,.,,
2.045660500,9,,
2.046701900,9,,
2.047743200,,,,
2.048784600,9,,
2.049825900,9,,
2.050867300,.,,
2.051908600,9,,
2.052949900,9,,
2.053991300,,,,
2.055032600,9,,
2.056074000,9,,
2.057115300,.,,
2.058156600,9,,
2.059198000,9,,
2.060239300,*,,
2.061280700,2,,
2.062322000,E,,
2.063363300,CR ,,
2.064404700,LF ,,
2.065446000,$,,
2.066487400,G,,
2.067528700,P,,
2.068570100,G,,
2.069611400,S,,
2.070652800,V,,
2.071694100,,,,
2.072735400,1,,
2.073776800,,,,
2.074818100,1,,
2.075859500,,,,
2.076900800,0,,
2.077942100,0,,
2.078983500,*,,
2.080024800,7,,
2.081066200,9,,
2.082107500,CR ,,
2.083148900,LF ,,
2.084190200,$,,
2.085231600,G,,
2.086272900,L,,
2.087314200,G,,
2.088355600,S,,
2.089396900,V,,
2.090438300,,,,
2.091479600,1,,
2.092520900,,,,
2.093562300,1,,
2.094603600,,,,
2.095645000,0,,
2.096686300,0,,
2.097727700,*,,
2.098769000,6,,
2.099810300,5,,
2.100851700,CR ,,
2.101893000,LF ,,
2.102934400,$,,
2.103975700,G,,
2.105017000,N,,
2.106058400,G,,
2.107099700,L,,
2.108141100,L,,
2.109182400,,,,
2.110223700,,,,
2.111265100,,,,
2.112306400,,,,
2.113347800,,,,
2.114389100,,,,
2.115430500,V,,
2.116471800,,,,
2.117513200,N,,
2.118554500,*,,
2.119595800,7,,
2.120637200,A,,
2.121678500,CR ,,
2.122719900,LF ,,
2.400302700,$,,
2.401344000,G,,
2.402385300,N,,
2.403426700,T,,
2.404468000,X,,
2.405509400,T,,
2.406550700,,,,
2.407592000,0,,
2.408633400,1,,
2.409674700,,,,
2.410716100,0,,
2.411757400,1,,
2.412798800,,,,
2.413840100,0,,
2.414881400,2,,
2.415922800,,,,
2.416964100,A,,
2.418005500,N,,
2.419046800,T,,
2.420088200,S,,
2.421129500,T,,
2.422170800,A,,
2.423212200,T,,
2.424253500,U,,
2.425294900,S,,
2.426336200,=,,
2.427377500,I,,
2.428418900,N,,
2.429460200,I,,
2.430501600,T,,
2.431542900,*,,
2.432584300,3,,
2.433625600,B,,
2.434666900,CR ,,
2.435708300,LF ,,
2.440244600,$,,
2.441286000,G,,
2.442327300,N,,
2.443368700,R,,
2.444410000,M,,
2.445451300,C,,
2.446492700,,,,
2.447534000,,,,
2.448575400,V,,
2.449616700,,,,
2.450658100,,,,
2.451699400,,,,
2.452740700,,,,
2.453782100,,,,
2.454823400,,,,
2.455864800,,,,
2.456906100,,,,
2.457947400,,,,
2.458988800,,,,
2.460030100,N,,
2.461071500,*,,
2.462112800,4,,
2.463154200,D,,
2.464195500,CR ,,
2.465236800,LF ,,
2.466278200,$,,
2.467319500,G,,
2.468360900,N,,
2.469402200,V,,
2.470443500,T,,
2.471484900,G,,
2.472526200,,,,
2.473567600,,,,
2.474608900,,,,
2.475650300,,,,
2.476691600,,,,
2.477733000,,,,
2.478774300,,,,
2.479815600,,,,
2.480857000,,,,
2.481898300,N,,
2.482939700,*,,
2.483981000,2,,
2.485022300,E,,
2.486063700,CR ,,
2.487105000,LF ,,
2.488146400,$,,
2.489187700,G,,
2.490229100,N,,
2.491270400,G,,
2.492311700,G,,
2.493353100,A,,
2.494394400,,,,
2.495435800,,,,
2.496477100,,,,
2.497518500,,,,
2.498559800,,,,
2.499601100,,,,
2.500642500,0,,
2.501683800,,,,
2.502725200,0,,
2.503766500,0,,
2.504807800,,,,
2.505849200,9,,
2.506890500,9,,
2.507931900,.,,
2.508973200,9,,
2.510014600,9,,
2.511055900,,,,
2.512097200,,,,
2.513138600,,,,
2.514179900,,,,
2.515221300,,,,
2.516262600,,,,
2.517303900,*,,
2.518345300,5,,
2.519386600,6,,
2.520428000,CR ,,
2.521469300,LF ,,
2.522510700,$,,
2.523552000,G,,
2.524593400,N,,
2.525634700,G,,
2.526676000,S,,
2.527717400,A,,
2.528758700,,,,
2.529800100,A,,
2.530841400,,,,
2.531882700,1,,
2.532924100,,,,
2.533965400,,,,
2.535006800,,,,
2.536048100,,,,
2.537089500,,,,
2.538130800,,,,
2.539172100,,,,
2.540213500,,,,
2.541254800,,,,
2.542296200,,,,
2.543337500,,,,
2.544378900,,,,
2.545420200,,,,
2.546461500,9,,
2.547502900,9,,
2.548544200,.,,
2.549585600,9,,
2.550626900,9,,
2.551668200,,,,
2.552709600,9,,
2.553750900,9,,
2.554792300,.,,
2.555833600,9,,
2.556875000,9,,
2.557916300,,,,
2.558957600,9,,
2.559999000,9,,
2.561040300,.,,
2.562081700,9,,
2.563123000,9,,
2.564164300,*,,
2.565205700,2,,
2.566247000,E,,
2.567288400,CR ,,
2.568329700,LF ,,
2.569371100,$,,
2.570412400,G,,
2.571453800,N,,
2.572495100,G,,
2.573536400,S,,
2.574577800,A,,
2.575619100,,,,
2.576660500,A,,
2.577701800,,,,
2.578743100,1,,
2.579784500,,,,
2.580825800,,,,
2.581867200,,,,
2.582908500,,,,
2.583949900,,,,
2.584991200,,,,
2.586032500,,,,
2.587073900,,,,
2.588115200,,,,
2.589156600,,,,
2.590197900,,,,
2.591239300,,,,
2.592280600,,,,
2.593321900,9,,
2.594363300,9,,
2.595404600,.,,
2.596446000,9,,
2.597487300,9,,
2.598528600,,,,
2.599570000,9,,
2.600611300,9,,
2.601652700,.,,
2.602694000,9,,
2.603735400,9,,
2.604776700,,,,
2.605818000,9,,
2.606859400,9,,
2.607900700,.,,
2.608942100,9,,
2.609983400,9,,
2.611024700,*,,
2.612066100,2,,
2.613107400,E,,
2.614148800,CR ,,
2.615190100,LF ,,
2.616231500,$,,
2.617272800,G,,
2.618314200,P,,
2.619355500,G,,
2.620396800,S,,
2.621438200,V,,
2.622479500,,,,
2.623520900,1,,
2.624562200,,,,
2.625603500,1,,
2.626644900,,,,
2.627686200,0,,
2.628727600,0,,
2.629768900,*,,
2.630810200,7,,
2.631851600,9,,
